
**** 10/20/25 13:31:29 **** PSpice 24.1.0 (23 January 2025) *** ID# 0 ********

 ** Profile: "CC-CC"  [ d:\projekty\power_supply\pcb_design\simulations\summing node-pspicefiles\cc\cc.sim ] 


 ****     CIRCUIT DESCRIPTION


******************************************************************************




** Creating circuit file "CC.cir" 
** WARNING: THIS AUTOMATICALLY GENERATED FILE MAY BE OVERWRITTEN BY SUBSEQUENT SIMULATIONS

*Libraries: 
* Profile Libraries :
* Local Libraries :
* From [PSPICE NETLIST] section of C:\Users\David\AppData\Roaming\SPB_Data\cdssetup\OrCAD_PSpice\24.1.0\PSpice.ini file:
.lib "nom.lib" 

*Analysis directives: 
.TRAN  0 10u 0 1n 
.OPTIONS ADVCONV
.PROBE64 V(alias(*)) I(alias(*)) W(alias(*)) D(alias(*)) NOISE(alias(*)) 
.INC "..\CC.net" 



**** INCLUDING CC.net ****
* source SUMMING NODE
R_R5         N02810 N02842  5900 TC=0,0 
V_V6         N02842 0 {V_node}
R_R6         N02810 0 1400
V_V5         N02886 0 0.6V
R_R_sense         R_SENSE_1 OUT2  10m TC=0,0 
R_R4         OUT2 N02810 100k
E_U4         R_SENSE_1 0 VALUE {LIMIT(V(N02886,N05162)*1E6,0,60)}
R_R8         0 N03191  {R_out} TC=0,0 
V_I_AMP         OUT2 N03191 0Vdc
E_U5         I_SENSE 0 VALUE {LIMIT(V(N03449,N03538)*1E6,0,60)}
R_R9         N03538 OUT2 100k
R_R10         N03449 R_SENSE_1 100k
R_R12         N03449 0 100k
R_R11         N03538 I_SENSE 100k
V_V7         N05200 0 {V_node}
R_R13         I_SENSE N05162 100k
R_R15         N05162 0 1400
R_R14         N05162 N05200  5900 TC=0,0 
.PARAM  r_out=1 v_node=1.5

**** RESUMING CC.cir ****
.END

**** 10/20/25 13:31:29 **** PSpice 24.1.0 (23 January 2025) *** ID# 0 ********

 ** Profile: "CC-CC"  [ d:\projekty\power_supply\pcb_design\simulations\summing node-pspicefiles\cc\cc.sim ] 


 ****     INITIAL TRANSIENT SOLUTION       TEMPERATURE =   27.000 DEG C


******************************************************************************



 NODE   VOLTAGE     NODE   VOLTAGE     NODE   VOLTAGE     NODE   VOLTAGE


( OUT2)   59.4060  (N02810)     .9491 (N02842)    1.5000 (N02886)     .6000     

(N03191)   59.4060 (N03449)   30.0000 (N03538)   30.0000 (N05162)     .2911     

(N05200)    1.5000 (I_SENSE)     .5941                   (R_SENSE_1)   60.0000  




    VOLTAGE SOURCE CURRENTS
    NAME         CURRENT

    V_V6        -9.337E-05
    V_V5         0.000E+00
    V_I_AMP      5.941E+01
    V_V7        -2.049E-04

    TOTAL POWER DISSIPATION   4.47E-04  WATTS



          JOB CONCLUDED

**** 10/20/25 13:31:29 **** PSpice 24.1.0 (23 January 2025) *** ID# 0 ********

 ** Profile: "CC-CC"  [ d:\projekty\power_supply\pcb_design\simulations\summing node-pspicefiles\cc\cc.sim ] 


 ****     JOB STATISTICS SUMMARY


******************************************************************************



  Total job time (using Solver 1)   =         .09
